T5C48 000:016.351   SEGGER J-Link V7.82 Log File
T5C48 000:016.727   DLL Compiled: Oct 13 2022 13:32:51
T5C48 000:016.772   Logging started @ 2024-12-18 11:27
T5C48 000:016.814 - 16.835ms
T5C48 000:016.871 JLINK_SetWarnOutHandler(...)
T5C48 000:016.960 - 0.138ms
T5C48 000:017.041 JLINK_OpenEx(...)
T5C48 000:020.522   Firmware: J-Link ARM V8 compiled Nov 28 2014 13:44:46
T5C48 000:021.181   Firmware: J-Link ARM V8 compiled Nov 28 2014 13:44:46
T5C48 000:024.808   Hardware: V8.00
T5C48 000:024.920   S/N: 4294967295
T5C48 000:024.974   OEM: SEGGER
T5C48 000:025.028   Feature(s): RDI,FlashDL,FlashBP,JFlash,GDB
T5C48 000:027.478   TELNET listener socket opened on port 19021
T5C48 000:027.997   WEBSRV WEBSRV_Init(): Starting webserver thread(s)
T5C48 000:028.365   WEBSRV Webserver running on local port 19080
T5C48 000:062.139 - 45.166ms returns "O.K."
T5C48 000:062.284 JLINK_GetEmuCaps()
T5C48 000:062.328 - 0.070ms returns 0xB9FF7BBF
T5C48 000:062.420 JLINK_TIF_GetAvailable(...)
T5C48 000:062.796 - 0.412ms
T5C48 000:062.872 JLINK_SetErrorOutHandler(...)
T5C48 000:062.910 - 0.055ms
T5C48 000:062.989 JLINK_ExecCommand("ProjectFile = "D:\Projects\GitProjects\szu-mcu\code\sensor\JLinkSettings.ini"", ...). 
T5C48 000:091.875   Ref file found at: D:\Software\MCU\Keil5\core\ARM\Segger\JLinkDevices.ref
T5C48 000:092.135   REF file references invalid XML file: D:\Software\SEGGER\JLink\JLinkDevices.xml
T5C48 000:092.587 - 29.631ms returns 0x00
T5C48 000:095.991 JLINK_ExecCommand("Device = STM32F103VC", ...). 
T5C48 000:104.514   Device "STM32F103VC" selected.
T5C48 000:105.364 - 9.317ms returns 0x00
T5C48 000:105.432 JLINK_ExecCommand("DisableConnectionTimeout", ...). 
T5C48 000:105.510 - 0.023ms returns 0x01
T5C48 000:105.554 JLINK_GetHardwareVersion()
T5C48 000:105.594 - 0.058ms returns 80000
T5C48 000:105.654 JLINK_GetDLLVersion()
T5C48 000:105.693 - 0.059ms returns 78200
T5C48 000:105.735 JLINK_GetOEMString(...)
T5C48 000:105.781 JLINK_GetFirmwareString(...)
T5C48 000:105.809 - 0.042ms
T5C48 000:143.842 JLINK_GetDLLVersion()
T5C48 000:143.935 - 0.112ms returns 78200
T5C48 000:143.978 JLINK_GetCompileDateTime()
T5C48 000:144.015 - 0.055ms
T5C48 000:176.951 JLINK_GetFirmwareString(...)
T5C48 000:177.024 - 0.086ms
T5C48 000:190.755 JLINK_GetHardwareVersion()
T5C48 000:190.845 - 0.111ms returns 80000
T5C48 000:214.506 JLINK_GetSN()
T5C48 000:214.572 - 0.079ms returns -1
T5C48 000:214.606 JLINK_GetOEMString(...)
T5C48 000:238.287 JLINK_TIF_Select(JLINKARM_TIF_JTAG)
T5C48 000:239.887 - 1.656ms returns 0x00
T5C48 000:239.967 JLINK_HasError()
T5C48 000:240.013 JLINK_SetSpeed(5000)
T5C48 000:240.210 - 0.213ms
T5C48 000:240.246 JLINK_GetIdData(pIdData)
T5C48 000:247.787   InitTarget() start
T5C48 000:247.895    J-Link Script File: Executing InitTarget()
T5C48 000:255.702   TotalIRLen = 9, IRPrint = 0x0011
T5C48 000:264.238   JTAG chain detection found 2 devices:
T5C48 000:269.317    #0 Id: 0x3BA00477, IRLen: 04, CoreSight JTAG-DP
T5C48 000:274.662    #1 Id: 0x06414041, IRLen: 05, STM32 Boundary Scan
T5C48 000:303.324   InitTarget() end
T5C48 000:310.456   TotalIRLen = 9, IRPrint = 0x0011
T5C48 000:318.033   JTAG chain detection found 2 devices:
T5C48 000:335.703    #0 Id: 0x3BA00477, IRLen: 04, CoreSight JTAG-DP
T5C48 000:341.280    #1 Id: 0x06414041, IRLen: 05, STM32 Boundary Scan
T5C48 000:348.391   Old FW that does not support reading DPIDR via DAP jobs
T5C48 000:363.606   DPv0 detected
T5C48 000:370.572   CoreSight SoC-400 or earlier
T5C48 000:376.977   Scanning AP map to find all available APs
T5C48 000:403.322   AP[1]: Stopped AP scan as end of AP map has been reached
T5C48 000:413.678   AP[0]: AHB-AP (IDR: 0x14770011)
T5C48 000:422.781   Iterating through AP map to find AHB-AP to use
T5C48 000:438.461   AP[0]: Core found
T5C48 000:446.241   AP[0]: AHB-AP ROM base: 0xE00FF000
T5C48 000:458.445   CPUID register: 0x411FC231. Implementer code: 0x41 (ARM)
T5C48 000:470.299   Found Cortex-M3 r1p1, Little endian.
T5C48 000:471.291   -- Max. mem block: 0x00002408
T5C48 000:471.886   CPU_ReadMem(4 bytes @ 0xE000EDF0)
T5C48 000:475.561   CPU_ReadMem(4 bytes @ 0xE0002000)
T5C48 000:484.797   FPUnit: 6 code (BP) slots and 2 literal slots
T5C48 000:485.035   CPU_ReadMem(4 bytes @ 0xE000EDFC)
T5C48 000:485.802   CPU_WriteMem(4 bytes @ 0xE000EDFC)
T5C48 000:486.375   CPU_ReadMem(4 bytes @ 0xE0001000)
T5C48 000:486.997   CPU_WriteMem(4 bytes @ 0xE0001000)
T5C48 000:487.574   CPU_ReadMem(4 bytes @ 0xE000ED88)
T5C48 000:488.360   CPU_WriteMem(4 bytes @ 0xE000ED88)
T5C48 000:488.934   CPU_ReadMem(4 bytes @ 0xE000ED88)
T5C48 000:489.564   CPU_WriteMem(4 bytes @ 0xE000ED88)
T5C48 000:500.899   CoreSight components:
T5C48 000:513.789   ROMTbl[0] @ E00FF000
T5C48 000:513.920   CPU_ReadMem(64 bytes @ 0xE00FF000)
T5C48 000:515.053   CPU_ReadMem(32 bytes @ 0xE000EFE0)
T5C48 000:560.482   [0][0]: E000E000 CID B105E00D PID 001BB000 SCS
T5C48 000:560.599   CPU_ReadMem(32 bytes @ 0xE0001FE0)
T5C48 000:579.324   [0][1]: E0001000 CID B105E00D PID 001BB002 DWT
T5C48 000:579.442   CPU_ReadMem(32 bytes @ 0xE0002FE0)
T5C48 000:589.503   [0][2]: E0002000 CID B105E00D PID 000BB003 FPB
T5C48 000:589.606   CPU_ReadMem(32 bytes @ 0xE0000FE0)
T5C48 000:605.297   [0][3]: E0000000 CID B105E00D PID 001BB001 ITM
T5C48 000:605.412   CPU_ReadMem(32 bytes @ 0xE0040FE0)
T5C48 000:614.777   [0][4]: E0040000 CID B105900D PID 001BB923 TPIU-Lite
T5C48 000:614.884   CPU_ReadMem(32 bytes @ 0xE0041FE0)
T5C48 000:638.304   [0][5]: E0041000 CID B105900D PID 101BB924 ETM-M3
T5C48 000:638.556   pIdData->ScanLen=9
T5C48 000:638.635   
T5C48 000:638.671   pIdData->NumDevices=2
T5C48 000:638.722   
T5C48 000:638.759   pIdData->aId[0]=0x3BA00477
T5C48 000:638.815   
T5C48 000:638.851   pIdData->aIrRead[0]=0
T5C48 000:638.904   
T5C48 000:638.942   pIdData->aScanLen[0]=0
T5C48 000:638.997   
T5C48 000:639.035   pIdData->aScanRead[0]=0
T5C48 000:639.092   
T5C48 000:639.126 - 398.900ms
T5C48 000:639.220 JLINK_JTAG_GetDeviceID(DeviceIndex = 0)
T5C48 000:639.269 - 0.067ms returns 1000342647
T5C48 000:639.487 JLINK_JTAG_GetDeviceInfo(DeviceIndex = 0)
T5C48 000:639.550 - 0.082ms returns 0
T5C48 000:639.592 JLINK_JTAG_GetDeviceID(DeviceIndex = 1)
T5C48 000:639.627 - 0.053ms returns 104939585
T5C48 000:639.667 JLINK_JTAG_GetDeviceInfo(DeviceIndex = 1)
T5C48 000:639.705 - 0.053ms returns 0
T5C48 000:639.740 JLINK_GetDLLVersion()
T5C48 000:639.766 - 0.040ms returns 78200
T5C48 000:639.798 JLINK_CORE_GetFound()
T5C48 000:639.826 - 0.042ms returns 0x30000FF
T5C48 000:639.863 JLINK_GetDebugInfo(0x100 = JLINKARM_ROM_TABLE_ADDR_INDEX)
T5C48 000:639.916   Value=0xE00FF000
T5C48 000:639.972 - 0.129ms returns 0
T5C48 000:654.088 JLINK_GetDebugInfo(0x100 = JLINKARM_ROM_TABLE_ADDR_INDEX)
T5C48 000:654.194   Value=0xE00FF000
T5C48 000:654.255 - 0.199ms returns 0
T5C48 000:654.308 JLINK_GetDebugInfo(0x101 = JLINKARM_DEBUG_INFO_ETM_ADDR_INDEX)
T5C48 000:654.338   Value=0xE0041000
T5C48 000:654.379 - 0.084ms returns 0
T5C48 000:654.424 JLINK_ReadMemEx(0xE0041FD0, 0x20 Bytes, Flags = 0x02000004)
T5C48 000:654.494   CPU_ReadMem(32 bytes @ 0xE0041FD0)
T5C48 000:655.312   Data:  04 00 00 00 00 00 00 00 00 00 00 00 00 00 00 00 ...
T5C48 000:655.397 - 0.987ms returns 32 (0x20)
T5C48 000:655.450 JLINK_GetDebugInfo(0x102 = JLINKARM_DEBUG_INFO_MTB_ADDR_INDEX)
T5C48 000:655.491   Value=0x00000000
T5C48 000:655.547 - 0.114ms returns 0
T5C48 000:655.587 JLINK_GetDebugInfo(0x103 = JLINKARM_DEBUG_INFO_TPIU_ADDR_INDEX)
T5C48 000:655.626   Value=0xE0040000
T5C48 000:655.679 - 0.111ms returns 0
T5C48 000:655.718 JLINK_GetDebugInfo(0x104 = JLINKARM_DEBUG_INFO_ITM_ADDR_INDEX)
T5C48 000:655.757   Value=0xE0000000
T5C48 000:655.814 - 0.115ms returns 0
T5C48 000:655.855 JLINK_GetDebugInfo(0x105 = JLINKARM_DEBUG_INFO_DWT_ADDR_INDEX)
T5C48 000:655.898   Value=0xE0001000
T5C48 000:655.956 - 0.118ms returns 0
T5C48 000:656.015 JLINK_GetDebugInfo(0x106 = JLINKARM_DEBUG_INFO_FPB_ADDR_INDEX)
T5C48 000:656.056   Value=0xE0002000
T5C48 000:656.114 - 0.119ms returns 0
T5C48 000:656.156 JLINK_GetDebugInfo(0x107 = JLINKARM_DEBUG_INFO_NVIC_ADDR_INDEX)
T5C48 000:656.207   Value=0xE000E000
T5C48 000:656.289 - 0.151ms returns 0
T5C48 000:656.327 JLINK_GetDebugInfo(0x10C = JLINKARM_DEBUG_INFO_DBG_ADDR_INDEX)
T5C48 000:656.368   Value=0xE000EDF0
T5C48 000:656.426 - 0.117ms returns 0
T5C48 000:656.467 JLINK_GetDebugInfo(0x01 = Unknown)
T5C48 000:656.519   Value=0x00000000
T5C48 000:656.575 - 0.128ms returns 0
T5C48 000:656.619 JLINK_ReadMemU32(0xE000ED00, 0x1 Items)
T5C48 000:656.680   CPU_ReadMem(4 bytes @ 0xE000ED00)
T5C48 000:657.327   Data:  31 C2 1F 41
T5C48 000:657.415   Debug reg: CPUID
T5C48 000:657.474 - 0.876ms returns 1 (0x1)
T5C48 000:657.525 JLINK_GetDebugInfo(0x10F = JLINKARM_DEBUG_INFO_HAS_CORTEX_M_SECURITY_EXT_INDEX)
T5C48 000:657.566   Value=0x00000000
T5C48 000:657.623 - 0.118ms returns 0
T5C48 000:657.668 JLINK_HasError()
T5C48 000:657.730 JLINK_SetResetType(JLINKARM_CM3_RESET_TYPE_NORMAL)
T5C48 000:657.773 - 0.064ms returns JLINKARM_CM3_RESET_TYPE_NORMAL
T5C48 000:657.817 JLINK_Reset()
T5C48 000:657.894   CPU is running
T5C48 000:657.958   CPU_WriteMem(4 bytes @ 0xE000EDF0)
T5C48 000:658.511   CPU is running
T5C48 000:658.596   CPU_WriteMem(4 bytes @ 0xE000EDFC)
T5C48 000:670.224   Reset: Halt core after reset via DEMCR.VC_CORERESET.
T5C48 000:680.515   Reset: Reset device via AIRCR.SYSRESETREQ.
T5C48 000:680.676   CPU is running
T5C48 000:680.748   CPU_WriteMem(4 bytes @ 0xE000ED0C)
T5C48 000:732.376   CPU_ReadMem(4 bytes @ 0xE000EDF0)
T5C48 000:733.125   CPU_ReadMem(4 bytes @ 0xE000EDF0)
T5C48 000:733.776   CPU is running
T5C48 000:733.827   CPU_WriteMem(4 bytes @ 0xE000EDF0)
T5C48 000:734.371   CPU is running
T5C48 000:734.422   CPU_WriteMem(4 bytes @ 0xE000EDFC)
T5C48 000:740.980   CPU_ReadMem(4 bytes @ 0xE000EDF0)
T5C48 000:744.825   CPU_WriteMem(4 bytes @ 0xE000EDFC)
T5C48 000:745.480   CPU_WriteMem(4 bytes @ 0xE0001028)
T5C48 000:746.017   CPU_WriteMem(4 bytes @ 0xE0001038)
T5C48 000:746.547   CPU_WriteMem(4 bytes @ 0xE0001048)
T5C48 000:747.011   CPU_WriteMem(4 bytes @ 0xE0001058)
T5C48 000:747.516   CPU_WriteMem(4 bytes @ 0xE0002000)
T5C48 000:748.000   CPU_ReadMem(4 bytes @ 0xE000EDFC)
T5C48 000:748.669   CPU_ReadMem(4 bytes @ 0xE0001000)
T5C48 000:749.292 - 91.516ms
T5C48 000:749.391 JLINK_Halt()
T5C48 000:749.435 - 0.064ms returns 0x00
T5C48 000:749.490 JLINK_ReadMemU32(0xE000EDF0, 0x1 Items)
T5C48 000:749.555   CPU_ReadMem(4 bytes @ 0xE000EDF0)
T5C48 000:750.118   Data:  03 00 03 00
T5C48 000:750.191   Debug reg: DHCSR
T5C48 000:750.260 - 0.791ms returns 1 (0x1)
T5C48 000:750.430 JLINK_WriteU32_64(0xE000EDF0, 0xA05F0003)
T5C48 000:750.474   Debug reg: DHCSR
T5C48 000:751.318   CPU_WriteMem(4 bytes @ 0xE000EDF0)
T5C48 000:751.895 - 1.500ms returns 0 (0x00000000)
T5C48 000:751.955 JLINK_WriteU32_64(0xE000EDFC, 0x01000000)
T5C48 000:751.984   Debug reg: DEMCR
T5C48 000:752.042   CPU_WriteMem(4 bytes @ 0xE000EDFC)
T5C48 000:752.594 - 0.661ms returns 0 (0x00000000)
T5C48 000:784.439 JLINK_GetHWStatus(...)
T5C48 000:784.928 - 0.545ms returns 0
T5C48 000:809.410 JLINK_GetNumBPUnits(Type = 0xFFFFFF00)
T5C48 000:809.515 - 0.126ms returns 0x06
T5C48 000:809.560 JLINK_GetNumBPUnits(Type = 0xF0)
T5C48 000:809.594 - 0.052ms returns 0x2000
T5C48 000:809.634 JLINK_GetNumWPUnits()
T5C48 000:809.670 - 0.054ms returns 4
T5C48 000:847.150 JLINK_GetSpeed()
T5C48 000:847.241 - 0.112ms returns 4800
T5C48 000:878.287 JLINK_ReadMemU32(0xE000E004, 0x1 Items)
T5C48 000:878.412   CPU_ReadMem(4 bytes @ 0xE000E004)
T5C48 000:879.077   Data:  01 00 00 00
T5C48 000:879.165 - 0.898ms returns 1 (0x1)
T5C48 000:879.217 JLINK_ReadMemU32(0xE000E004, 0x1 Items)
T5C48 000:879.273   CPU_ReadMem(4 bytes @ 0xE000E004)
T5C48 000:879.914   Data:  01 00 00 00
T5C48 000:879.990 - 0.794ms returns 1 (0x1)
T5C48 000:880.041 JLINK_WriteMemEx(0xE0001000, 0x0000001C Bytes, Flags = 0x02000004)
T5C48 000:880.086   Data:  01 00 00 00 00 00 00 00 00 00 00 00 00 00 00 00 ...
T5C48 000:880.189   CPU_WriteMem(28 bytes @ 0xE0001000)
T5C48 000:880.945 - 0.950ms returns 0x1C
T5C48 000:881.035 JLINK_Halt()
T5C48 000:881.118 - 0.110ms returns 0x00
T5C48 000:881.170 JLINK_IsHalted()
T5C48 000:881.211 - 0.060ms returns TRUE
T5C48 000:896.703 JLINK_WriteMem(0x20000000, 0x164 Bytes, ...)
T5C48 000:896.759   Data:  00 BE 0A E0 0D 78 2D 06 68 40 08 24 40 00 00 D3 ...
T5C48 000:897.484   CPU_WriteMem(356 bytes @ 0x20000000)
T5C48 000:901.017 - 4.371ms returns 0x164
T5C48 000:901.190 JLINK_HasError()
T5C48 000:901.238 JLINK_WriteReg(R0, 0x08000000)
T5C48 000:901.317 - 0.099ms returns 0
T5C48 000:901.359 JLINK_WriteReg(R1, 0x00B71B00)
T5C48 000:901.401 - 0.061ms returns 0
T5C48 000:901.442 JLINK_WriteReg(R2, 0x00000001)
T5C48 000:901.482 - 0.059ms returns 0
T5C48 000:901.523 JLINK_WriteReg(R3, 0x00000000)
T5C48 000:901.561 - 0.056ms returns 0
T5C48 000:901.601 JLINK_WriteReg(R4, 0x00000000)
T5C48 000:901.641 - 0.058ms returns 0
T5C48 000:901.697 JLINK_WriteReg(R5, 0x00000000)
T5C48 000:901.864 - 0.193ms returns 0
T5C48 000:901.916 JLINK_WriteReg(R6, 0x00000000)
T5C48 000:901.976 - 0.078ms returns 0
T5C48 000:902.018 JLINK_WriteReg(R7, 0x00000000)
T5C48 000:902.058 - 0.060ms returns 0
T5C48 000:902.097 JLINK_WriteReg(R8, 0x00000000)
T5C48 000:902.147 - 0.062ms returns 0
T5C48 000:902.176 JLINK_WriteReg(R9, 0x20000160)
T5C48 000:902.202 - 0.041ms returns 0
T5C48 000:902.238 JLINK_WriteReg(R10, 0x00000000)
T5C48 000:902.289 - 0.070ms returns 0
T5C48 000:902.330 JLINK_WriteReg(R11, 0x00000000)
T5C48 000:902.367 - 0.054ms returns 0
T5C48 000:902.399 JLINK_WriteReg(R12, 0x00000000)
T5C48 000:902.425 - 0.038ms returns 0
T5C48 000:902.453 JLINK_WriteReg(R13 (SP), 0x20000800)
T5C48 000:902.482 - 0.041ms returns 0
T5C48 000:902.509 JLINK_WriteReg(R14, 0x20000001)
T5C48 000:902.536 - 0.039ms returns 0
T5C48 000:902.563 JLINK_WriteReg(R15 (PC), 0x20000038)
T5C48 000:902.594 - 0.044ms returns 0
T5C48 000:902.622 JLINK_WriteReg(XPSR, 0x01000000)
T5C48 000:902.648 - 0.039ms returns 0
T5C48 000:902.676 JLINK_WriteReg(MSP, 0x20000800)
T5C48 000:902.710 - 0.070ms returns 0
T5C48 000:902.763 JLINK_WriteReg(PSP, 0x20000800)
T5C48 000:902.791 - 0.040ms returns 0
T5C48 000:902.818 JLINK_WriteReg(CFBP, 0x00000000)
T5C48 000:902.844 - 0.038ms returns 0
T5C48 000:902.882 JLINK_SetBPEx(Addr = 0x20000000, Type = 0xFFFFFFF2)
T5C48 000:902.943   CPU_ReadMem(2 bytes @ 0x20000000)
T5C48 000:903.530 - 0.695ms returns 0x00000001
T5C48 000:903.617 JLINK_Go()
T5C48 000:903.660   CPU_WriteMem(2 bytes @ 0x20000000)
T5C48 000:904.191   CPU_ReadMem(4 bytes @ 0xE0001000)
T5C48 000:904.736   CPU_WriteMem(4 bytes @ 0xE0002008)
T5C48 000:904.781   CPU_WriteMem(4 bytes @ 0xE000200C)
T5C48 000:904.822   CPU_WriteMem(4 bytes @ 0xE0002010)
T5C48 000:904.870   CPU_WriteMem(4 bytes @ 0xE0002014)
T5C48 000:904.910   CPU_WriteMem(4 bytes @ 0xE0002018)
T5C48 000:904.950   CPU_WriteMem(4 bytes @ 0xE000201C)
T5C48 000:907.037   CPU_WriteMem(4 bytes @ 0xE0001004)
T5C48 000:909.836 - 6.276ms
T5C48 000:909.942 JLINK_IsHalted()
T5C48 000:913.141   CPU_ReadMem(2 bytes @ 0x20000000)
T5C48 000:913.914 - 4.026ms returns TRUE
T5C48 000:914.014 JLINK_ReadReg(R15 (PC))
T5C48 000:914.138 - 0.183ms returns 0x20000000
T5C48 000:914.247 JLINK_ClrBPEx(BPHandle = 0x00000001)
T5C48 000:914.296 - 0.070ms returns 0x00
T5C48 000:914.344 JLINK_ReadReg(R0)
T5C48 000:914.386 - 0.060ms returns 0x00000000
T5C48 000:916.684 JLINK_HasError()
T5C48 000:916.761 JLINK_WriteReg(R0, 0x08000000)
T5C48 000:916.806 - 0.175ms returns 0
T5C48 000:916.978 JLINK_WriteReg(R1, 0x00B71B00)
T5C48 000:917.025 - 0.065ms returns 0
T5C48 000:917.063 JLINK_WriteReg(R2, 0x00000001)
T5C48 000:917.102 - 0.051ms returns 0
T5C48 000:917.130 JLINK_WriteReg(R3, 0x00000000)
T5C48 000:917.157 - 0.039ms returns 0
T5C48 000:917.187 JLINK_WriteReg(R4, 0x00000000)
T5C48 000:917.213 - 0.039ms returns 0
T5C48 000:917.241 JLINK_WriteReg(R5, 0x00000000)
T5C48 000:917.277 - 0.048ms returns 0
T5C48 000:917.305 JLINK_WriteReg(R6, 0x00000000)
T5C48 000:917.333 - 0.045ms returns 0
T5C48 000:917.373 JLINK_WriteReg(R7, 0x00000000)
T5C48 000:917.400 - 0.039ms returns 0
T5C48 000:917.518 JLINK_WriteReg(R8, 0x00000000)
T5C48 000:917.554 - 0.050ms returns 0
T5C48 000:917.583 JLINK_WriteReg(R9, 0x20000160)
T5C48 000:917.612 - 0.042ms returns 0
T5C48 000:917.641 JLINK_WriteReg(R10, 0x00000000)
T5C48 000:917.668 - 0.040ms returns 0
T5C48 000:917.697 JLINK_WriteReg(R11, 0x00000000)
T5C48 000:917.758 - 0.095ms returns 0
T5C48 000:917.844 JLINK_WriteReg(R12, 0x00000000)
T5C48 000:917.901 - 0.074ms returns 0
T5C48 000:917.934 JLINK_WriteReg(R13 (SP), 0x20000800)
T5C48 000:917.962 - 0.042ms returns 0
T5C48 000:917.991 JLINK_WriteReg(R14, 0x20000001)
T5C48 000:918.019 - 0.048ms returns 0
T5C48 000:918.057 JLINK_WriteReg(R15 (PC), 0x2000007C)
T5C48 000:918.086 - 0.046ms returns 0
T5C48 000:918.126 JLINK_WriteReg(XPSR, 0x01000000)
T5C48 000:918.167 - 0.059ms returns 0
T5C48 000:918.208 JLINK_WriteReg(MSP, 0x20000800)
T5C48 000:918.248 - 0.105ms returns 0
T5C48 000:918.347 JLINK_WriteReg(PSP, 0x20000800)
T5C48 000:918.389 - 0.055ms returns 0
T5C48 000:918.418 JLINK_WriteReg(CFBP, 0x00000000)
T5C48 000:918.475 - 0.069ms returns 0
T5C48 000:918.505 JLINK_SetBPEx(Addr = 0x20000000, Type = 0xFFFFFFF2)
T5C48 000:918.602 - 0.114ms returns 0x00000002
T5C48 000:918.643 JLINK_Go()
T5C48 000:918.693   CPU_ReadMem(4 bytes @ 0xE0001000)
T5C48 000:921.648 - 3.053ms
T5C48 000:921.755 JLINK_IsHalted()
T5C48 000:922.330 - 0.620ms returns FALSE
T5C48 000:922.400 JLINK_HasError()
T5C48 000:957.241 JLINK_IsHalted()
T5C48 000:960.705   CPU_ReadMem(2 bytes @ 0x20000000)
T5C48 000:961.340 - 4.141ms returns TRUE
T5C48 000:961.415 JLINK_ReadReg(R15 (PC))
T5C48 000:961.451 - 0.101ms returns 0x20000000
T5C48 000:961.548 JLINK_ClrBPEx(BPHandle = 0x00000002)
T5C48 000:961.583 - 0.049ms returns 0x00
T5C48 000:961.614 JLINK_ReadReg(R0)
T5C48 000:961.644 - 0.043ms returns 0x00000000
T5C48 001:016.349 JLINK_HasError()
T5C48 001:016.497 JLINK_WriteReg(R0, 0x00000001)
T5C48 001:016.539 - 0.056ms returns 0
T5C48 001:016.572 JLINK_WriteReg(R1, 0x00B71B00)
T5C48 001:016.601 - 0.042ms returns 0
T5C48 001:016.631 JLINK_WriteReg(R2, 0x00000001)
T5C48 001:016.662 - 0.044ms returns 0
T5C48 001:016.691 JLINK_WriteReg(R3, 0x00000000)
T5C48 001:016.719 - 0.041ms returns 0
T5C48 001:016.748 JLINK_WriteReg(R4, 0x00000000)
T5C48 001:016.776 - 0.041ms returns 0
T5C48 001:016.805 JLINK_WriteReg(R5, 0x00000000)
T5C48 001:016.831 - 0.040ms returns 0
T5C48 001:016.860 JLINK_WriteReg(R6, 0x00000000)
T5C48 001:016.895 - 0.049ms returns 0
T5C48 001:016.925 JLINK_WriteReg(R7, 0x00000000)
T5C48 001:016.950 - 0.038ms returns 0
T5C48 001:016.979 JLINK_WriteReg(R8, 0x00000000)
T5C48 001:017.006 - 0.041ms returns 0
T5C48 001:017.036 JLINK_WriteReg(R9, 0x20000160)
T5C48 001:017.065 - 0.043ms returns 0
T5C48 001:017.095 JLINK_WriteReg(R10, 0x00000000)
T5C48 001:017.123 - 0.044ms returns 0
T5C48 001:017.161 JLINK_WriteReg(R11, 0x00000000)
T5C48 001:017.197 - 0.054ms returns 0
T5C48 001:017.248 JLINK_WriteReg(R12, 0x00000000)
T5C48 001:017.279 - 0.045ms returns 0
T5C48 001:017.308 JLINK_WriteReg(R13 (SP), 0x20000800)
T5C48 001:017.338 - 0.042ms returns 0
T5C48 001:017.490 JLINK_WriteReg(R14, 0x20000001)
T5C48 001:017.561 - 0.084ms returns 0
T5C48 001:017.594 JLINK_WriteReg(R15 (PC), 0x2000006A)
T5C48 001:017.622 - 0.041ms returns 0
T5C48 001:017.651 JLINK_WriteReg(XPSR, 0x01000000)
T5C48 001:017.678 - 0.041ms returns 0
T5C48 001:017.709 JLINK_WriteReg(MSP, 0x20000800)
T5C48 001:017.737 - 0.041ms returns 0
T5C48 001:017.766 JLINK_WriteReg(PSP, 0x20000800)
T5C48 001:017.792 - 0.040ms returns 0
T5C48 001:017.822 JLINK_WriteReg(CFBP, 0x00000000)
T5C48 001:017.850 - 0.041ms returns 0
T5C48 001:017.882 JLINK_SetBPEx(Addr = 0x20000000, Type = 0xFFFFFFF2)
T5C48 001:017.918 - 0.049ms returns 0x00000003
T5C48 001:017.949 JLINK_Go()
T5C48 001:018.002   CPU_ReadMem(4 bytes @ 0xE0001000)
T5C48 001:021.042 - 3.127ms
T5C48 001:021.097 JLINK_IsHalted()
T5C48 001:025.052   CPU_ReadMem(2 bytes @ 0x20000000)
T5C48 001:025.678 - 4.631ms returns TRUE
T5C48 001:025.753 JLINK_ReadReg(R15 (PC))
T5C48 001:025.798 - 0.064ms returns 0x20000000
T5C48 001:025.835 JLINK_ClrBPEx(BPHandle = 0x00000003)
T5C48 001:025.864 - 0.042ms returns 0x00
T5C48 001:025.893 JLINK_ReadReg(R0)
T5C48 001:025.920 - 0.040ms returns 0x00000000
T5C48 001:041.992 JLINK_WriteMem(0x20000000, 0x164 Bytes, ...)
T5C48 001:042.046   Data:  00 BE 0A E0 0D 78 2D 06 68 40 08 24 40 00 00 D3 ...
T5C48 001:042.114   CPU_WriteMem(356 bytes @ 0x20000000)
T5C48 001:045.449 - 3.512ms returns 0x164
T5C48 001:045.635 JLINK_HasError()
T5C48 001:045.747 JLINK_WriteReg(R0, 0x08000000)
T5C48 001:045.788 - 0.053ms returns 0
T5C48 001:045.818 JLINK_WriteReg(R1, 0x00B71B00)
T5C48 001:045.845 - 0.040ms returns 0
T5C48 001:045.873 JLINK_WriteReg(R2, 0x00000002)
T5C48 001:045.899 - 0.106ms returns 0
T5C48 001:046.001 JLINK_WriteReg(R3, 0x00000000)
T5C48 001:046.040 - 0.057ms returns 0
T5C48 001:046.079 JLINK_WriteReg(R4, 0x00000000)
T5C48 001:046.115 - 0.056ms returns 0
T5C48 001:046.157 JLINK_WriteReg(R5, 0x00000000)
T5C48 001:046.196 - 0.058ms returns 0
T5C48 001:046.248 JLINK_WriteReg(R6, 0x00000000)
T5C48 001:046.289 - 0.061ms returns 0
T5C48 001:046.330 JLINK_WriteReg(R7, 0x00000000)
T5C48 001:046.368 - 0.056ms returns 0
T5C48 001:046.408 JLINK_WriteReg(R8, 0x00000000)
T5C48 001:046.447 - 0.058ms returns 0
T5C48 001:046.488 JLINK_WriteReg(R9, 0x20000160)
T5C48 001:046.528 - 0.061ms returns 0
T5C48 001:046.572 JLINK_WriteReg(R10, 0x00000000)
T5C48 001:046.613 - 0.061ms returns 0
T5C48 001:046.656 JLINK_WriteReg(R11, 0x00000000)
T5C48 001:046.697 - 0.061ms returns 0
T5C48 001:046.740 JLINK_WriteReg(R12, 0x00000000)
T5C48 001:046.781 - 0.060ms returns 0
T5C48 001:046.824 JLINK_WriteReg(R13 (SP), 0x20000800)
T5C48 001:046.868 - 0.064ms returns 0
T5C48 001:046.960 JLINK_WriteReg(R14, 0x20000001)
T5C48 001:047.002 - 0.062ms returns 0
T5C48 001:047.045 JLINK_WriteReg(R15 (PC), 0x20000038)
T5C48 001:047.086 - 0.061ms returns 0
T5C48 001:047.138 JLINK_WriteReg(XPSR, 0x01000000)
T5C48 001:047.181 - 0.063ms returns 0
T5C48 001:047.224 JLINK_WriteReg(MSP, 0x20000800)
T5C48 001:047.265 - 0.061ms returns 0
T5C48 001:047.308 JLINK_WriteReg(PSP, 0x20000800)
T5C48 001:047.350 - 0.061ms returns 0
T5C48 001:047.393 JLINK_WriteReg(CFBP, 0x00000000)
T5C48 001:047.466 - 0.094ms returns 0
T5C48 001:047.509 JLINK_SetBPEx(Addr = 0x20000000, Type = 0xFFFFFFF2)
T5C48 001:047.573   CPU_ReadMem(2 bytes @ 0x20000000)
T5C48 001:048.459 - 1.059ms returns 0x00000004
T5C48 001:048.607 JLINK_Go()
T5C48 001:048.655   CPU_WriteMem(2 bytes @ 0x20000000)
T5C48 001:049.215   CPU_ReadMem(4 bytes @ 0xE0001000)
T5C48 001:052.518 - 3.956ms
T5C48 001:052.587 JLINK_IsHalted()
T5C48 001:055.774   CPU_ReadMem(2 bytes @ 0x20000000)
T5C48 001:056.458 - 3.916ms returns TRUE
T5C48 001:056.531 JLINK_ReadReg(R15 (PC))
T5C48 001:056.575 - 0.061ms returns 0x20000000
T5C48 001:056.611 JLINK_ClrBPEx(BPHandle = 0x00000004)
T5C48 001:056.646 - 0.051ms returns 0x00
T5C48 001:056.681 JLINK_ReadReg(R0)
T5C48 001:056.715 - 0.050ms returns 0x00000000
T5C48 001:057.622 JLINK_WriteMem(0x20000164, 0x29C Bytes, ...)
T5C48 001:057.677   Data:  78 04 00 20 49 01 00 08 2D 42 00 08 2F 42 00 08 ...
T5C48 001:057.781   CPU_WriteMem(668 bytes @ 0x20000164)
T5C48 001:063.465 - 5.894ms returns 0x29C
T5C48 001:063.542 JLINK_WriteMem(0x20000400, 0x164 Bytes, ...)
T5C48 001:063.572   Data:  00 23 50 68 E8 4C 20 40 0D 79 0C 68 44 EA 05 24 ...
T5C48 001:063.642   CPU_WriteMem(356 bytes @ 0x20000400)
T5C48 001:067.035 - 3.555ms returns 0x164
T5C48 001:067.131 JLINK_HasError()
T5C48 001:067.174 JLINK_WriteReg(R0, 0x08000000)
T5C48 001:067.273 - 0.115ms returns 0
T5C48 001:067.307 JLINK_WriteReg(R1, 0x00000400)
T5C48 001:067.337 - 0.043ms returns 0
T5C48 001:067.367 JLINK_WriteReg(R2, 0x20000164)
T5C48 001:067.394 - 0.041ms returns 0
T5C48 001:067.423 JLINK_WriteReg(R3, 0x00000000)
T5C48 001:067.460 - 0.050ms returns 0
T5C48 001:067.489 JLINK_WriteReg(R4, 0x00000000)
T5C48 001:067.517 - 0.041ms returns 0
T5C48 001:067.581 JLINK_WriteReg(R5, 0x00000000)
T5C48 001:067.621 - 0.069ms returns 0
T5C48 001:067.672 JLINK_WriteReg(R6, 0x00000000)
T5C48 001:067.709 - 0.055ms returns 0
T5C48 001:067.743 JLINK_WriteReg(R7, 0x00000000)
T5C48 001:067.768 - 0.039ms returns 0
T5C48 001:067.797 JLINK_WriteReg(R8, 0x00000000)
T5C48 001:067.823 - 0.039ms returns 0
T5C48 001:067.851 JLINK_WriteReg(R9, 0x20000160)
T5C48 001:067.878 - 0.042ms returns 0
T5C48 001:067.909 JLINK_WriteReg(R10, 0x00000000)
T5C48 001:067.938 - 0.041ms returns 0
T5C48 001:067.966 JLINK_WriteReg(R11, 0x00000000)
T5C48 001:067.992 - 0.038ms returns 0
T5C48 001:068.019 JLINK_WriteReg(R12, 0x00000000)
T5C48 001:068.046 - 0.039ms returns 0
T5C48 001:068.073 JLINK_WriteReg(R13 (SP), 0x20000800)
T5C48 001:068.101 - 0.041ms returns 0
T5C48 001:068.128 JLINK_WriteReg(R14, 0x20000001)
T5C48 001:068.155 - 0.039ms returns 0
T5C48 001:068.189 JLINK_WriteReg(R15 (PC), 0x200000F4)
T5C48 001:068.217 - 0.040ms returns 0
T5C48 001:068.245 JLINK_WriteReg(XPSR, 0x01000000)
T5C48 001:068.272 - 0.039ms returns 0
T5C48 001:068.302 JLINK_WriteReg(MSP, 0x20000800)
T5C48 001:068.418 - 0.139ms returns 0
T5C48 001:068.470 JLINK_WriteReg(PSP, 0x20000800)
T5C48 001:068.509 - 0.057ms returns 0
T5C48 001:068.550 JLINK_WriteReg(CFBP, 0x00000000)
T5C48 001:068.589 - 0.059ms returns 0
T5C48 001:068.633 JLINK_SetBPEx(Addr = 0x20000000, Type = 0xFFFFFFF2)
T5C48 001:068.681 - 0.068ms returns 0x00000005
T5C48 001:068.723 JLINK_Go()
T5C48 001:068.784   CPU_ReadMem(4 bytes @ 0xE0001000)
T5C48 001:071.933 - 3.268ms
T5C48 001:072.043 JLINK_IsHalted()
T5C48 001:072.548 - 0.559ms returns FALSE
T5C48 001:072.649 JLINK_HasError()
T5C48 001:093.273 JLINK_IsHalted()
T5C48 001:093.920 - 0.698ms returns FALSE
T5C48 001:093.997 JLINK_HasError()
T5C48 001:095.358 JLINK_IsHalted()
T5C48 001:096.028 - 0.717ms returns FALSE
T5C48 001:096.108 JLINK_HasError()
T5C48 001:098.362 JLINK_IsHalted()
T5C48 001:098.918 - 0.610ms returns FALSE
T5C48 001:099.019 JLINK_HasError()
T5C48 001:101.086 JLINK_IsHalted()
T5C48 001:101.672 - 0.648ms returns FALSE
T5C48 001:101.784 JLINK_HasError()
T5C48 001:103.093 JLINK_IsHalted()
T5C48 001:106.272   CPU_ReadMem(2 bytes @ 0x20000000)
T5C48 001:106.923 - 3.876ms returns TRUE
T5C48 001:106.994 JLINK_ReadReg(R15 (PC))
T5C48 001:107.050 - 0.077ms returns 0x20000000
T5C48 001:107.095 JLINK_ClrBPEx(BPHandle = 0x00000005)
T5C48 001:107.147 - 0.073ms returns 0x00
T5C48 001:107.193 JLINK_ReadReg(R0)
T5C48 001:107.236 - 0.060ms returns 0x00000000
T5C48 001:109.982 JLINK_WriteMem(0x20000164, 0x29C Bytes, ...)
T5C48 001:110.064   Data:  06 FA 07 F1 88 43 05 EB 45 06 03 FA 06 F1 08 43 ...
T5C48 001:110.154   CPU_WriteMem(668 bytes @ 0x20000164)
T5C48 001:115.722 - 5.794ms returns 0x29C
T5C48 001:115.807 JLINK_WriteMem(0x20000400, 0x164 Bytes, ...)
T5C48 001:115.851   Data:  FE 72 11 40 01 60 00 21 01 60 41 60 81 60 C1 60 ...
T5C48 001:115.930   CPU_WriteMem(356 bytes @ 0x20000400)
T5C48 001:119.371 - 3.617ms returns 0x164
T5C48 001:119.459 JLINK_HasError()
T5C48 001:119.508 JLINK_WriteReg(R0, 0x08000400)
T5C48 001:119.671 - 0.182ms returns 0
T5C48 001:119.711 JLINK_WriteReg(R1, 0x00000400)
T5C48 001:119.751 - 0.058ms returns 0
T5C48 001:119.793 JLINK_WriteReg(R2, 0x20000164)
T5C48 001:119.831 - 0.131ms returns 0
T5C48 001:119.963 JLINK_WriteReg(R3, 0x00000000)
T5C48 001:120.001 - 0.057ms returns 0
T5C48 001:120.042 JLINK_WriteReg(R4, 0x00000000)
T5C48 001:120.081 - 0.070ms returns 0
T5C48 001:120.135 JLINK_WriteReg(R5, 0x00000000)
T5C48 001:120.175 - 0.058ms returns 0
T5C48 001:120.216 JLINK_WriteReg(R6, 0x00000000)
T5C48 001:120.253 - 0.056ms returns 0
T5C48 001:120.294 JLINK_WriteReg(R7, 0x00000000)
T5C48 001:120.333 - 0.057ms returns 0
T5C48 001:120.371 JLINK_WriteReg(R8, 0x00000000)
T5C48 001:120.411 - 0.058ms returns 0
T5C48 001:120.452 JLINK_WriteReg(R9, 0x20000160)
T5C48 001:120.491 - 0.058ms returns 0
T5C48 001:120.531 JLINK_WriteReg(R10, 0x00000000)
T5C48 001:120.572 - 0.059ms returns 0
T5C48 001:120.613 JLINK_WriteReg(R11, 0x00000000)
T5C48 001:120.651 - 0.054ms returns 0
T5C48 001:120.700 JLINK_WriteReg(R12, 0x00000000)
T5C48 001:120.740 - 0.060ms returns 0
T5C48 001:120.782 JLINK_WriteReg(R13 (SP), 0x20000800)
T5C48 001:120.818 - 0.050ms returns 0
T5C48 001:120.853 JLINK_WriteReg(R14, 0x20000001)
T5C48 001:120.915 - 0.082ms returns 0
T5C48 001:120.957 JLINK_WriteReg(R15 (PC), 0x200000F4)
T5C48 001:120.998 - 0.060ms returns 0
T5C48 001:121.037 JLINK_WriteReg(XPSR, 0x01000000)
T5C48 001:121.077 - 0.059ms returns 0
T5C48 001:121.119 JLINK_WriteReg(MSP, 0x20000800)
T5C48 001:121.159 - 0.058ms returns 0
T5C48 001:121.199 JLINK_WriteReg(PSP, 0x20000800)
T5C48 001:121.236 - 0.054ms returns 0
T5C48 001:121.274 JLINK_WriteReg(CFBP, 0x00000000)
T5C48 001:121.315 - 0.058ms returns 0
T5C48 001:121.357 JLINK_SetBPEx(Addr = 0x20000000, Type = 0xFFFFFFF2)
T5C48 001:121.403 - 0.066ms returns 0x00000006
T5C48 001:121.443 JLINK_Go()
T5C48 001:121.491   CPU_ReadMem(4 bytes @ 0xE0001000)
T5C48 001:124.465 - 3.088ms
T5C48 001:124.578 JLINK_IsHalted()
T5C48 001:125.065 - 0.533ms returns FALSE
T5C48 001:125.155 JLINK_HasError()
T5C48 001:129.888 JLINK_IsHalted()
T5C48 001:130.538 - 0.693ms returns FALSE
T5C48 001:130.605 JLINK_HasError()
T5C48 001:133.328 JLINK_IsHalted()
T5C48 001:133.907 - 0.625ms returns FALSE
T5C48 001:133.978 JLINK_HasError()
T5C48 001:137.912 JLINK_IsHalted()
T5C48 001:138.478 - 0.661ms returns FALSE
T5C48 001:138.654 JLINK_HasError()
T5C48 001:139.841 JLINK_IsHalted()
T5C48 001:140.323 - 0.505ms returns FALSE
T5C48 001:140.366 JLINK_HasError()
T5C48 001:141.884 JLINK_IsHalted()
T5C48 001:142.519 - 0.658ms returns FALSE
T5C48 001:142.562 JLINK_HasError()
T5C48 001:143.810 JLINK_IsHalted()
T5C48 001:144.417 - 0.628ms returns FALSE
T5C48 001:144.460 JLINK_HasError()
T5C48 001:145.821 JLINK_IsHalted()
T5C48 001:146.352 - 0.569ms returns FALSE
T5C48 001:146.411 JLINK_HasError()
T5C48 001:148.364 JLINK_IsHalted()
T5C48 001:148.896 - 0.567ms returns FALSE
T5C48 001:148.952 JLINK_HasError()
T5C48 001:150.518 JLINK_IsHalted()
T5C48 001:151.082 - 0.615ms returns FALSE
T5C48 001:151.157 JLINK_HasError()
T5C48 001:152.934 JLINK_IsHalted()
T5C48 001:153.422 - 0.507ms returns FALSE
T5C48 001:153.462 JLINK_HasError()
T5C48 001:155.006 JLINK_IsHalted()
T5C48 001:158.420   CPU_ReadMem(2 bytes @ 0x20000000)
T5C48 001:159.142 - 4.167ms returns TRUE
T5C48 001:159.196 JLINK_ReadReg(R15 (PC))
T5C48 001:159.234 - 0.052ms returns 0x20000000
T5C48 001:159.265 JLINK_ClrBPEx(BPHandle = 0x00000006)
T5C48 001:159.295 - 0.043ms returns 0x00
T5C48 001:159.325 JLINK_ReadReg(R0)
T5C48 001:159.354 - 0.043ms returns 0x00000000
T5C48 001:160.588 JLINK_WriteMem(0x20000164, 0x29C Bytes, ...)
T5C48 001:160.649   Data:  23 43 8C 6A 23 43 1A 43 02 60 CB 68 43 60 0B 68 ...
T5C48 001:160.709   CPU_WriteMem(668 bytes @ 0x20000164)
T5C48 001:166.213 - 5.672ms returns 0x29C
T5C48 001:166.284 JLINK_WriteMem(0x20000400, 0x164 Bytes, ...)
T5C48 001:166.314   Data:  01 F0 10 01 09 B1 03 20 00 E0 04 20 70 47 00 B5 ...
T5C48 001:166.378   CPU_WriteMem(356 bytes @ 0x20000400)
T5C48 001:169.803 - 3.562ms returns 0x164
T5C48 001:169.872 JLINK_HasError()
T5C48 001:169.905 JLINK_WriteReg(R0, 0x08000800)
T5C48 001:169.940 - 0.048ms returns 0
T5C48 001:169.969 JLINK_WriteReg(R1, 0x00000400)
T5C48 001:170.003 - 0.047ms returns 0
T5C48 001:170.031 JLINK_WriteReg(R2, 0x20000164)
T5C48 001:170.060 - 0.047ms returns 0
T5C48 001:170.132 JLINK_WriteReg(R3, 0x00000000)
T5C48 001:170.172 - 0.061ms returns 0
T5C48 001:170.216 JLINK_WriteReg(R4, 0x00000000)
T5C48 001:170.258 - 0.063ms returns 0
T5C48 001:170.302 JLINK_WriteReg(R5, 0x00000000)
T5C48 001:170.334 - 0.044ms returns 0
T5C48 001:170.363 JLINK_WriteReg(R6, 0x00000000)
T5C48 001:170.388 - 0.039ms returns 0
T5C48 001:170.424 JLINK_WriteReg(R7, 0x00000000)
T5C48 001:170.450 - 0.038ms returns 0
T5C48 001:170.477 JLINK_WriteReg(R8, 0x00000000)
T5C48 001:170.504 - 0.039ms returns 0
T5C48 001:170.531 JLINK_WriteReg(R9, 0x20000160)
T5C48 001:170.564 - 0.045ms returns 0
T5C48 001:170.591 JLINK_WriteReg(R10, 0x00000000)
T5C48 001:170.730 - 0.163ms returns 0
T5C48 001:170.776 JLINK_WriteReg(R11, 0x00000000)
T5C48 001:170.812 - 0.053ms returns 0
T5C48 001:170.850 JLINK_WriteReg(R12, 0x00000000)
T5C48 001:170.883 - 0.045ms returns 0
T5C48 001:170.916 JLINK_WriteReg(R13 (SP), 0x20000800)
T5C48 001:170.953 - 0.052ms returns 0
T5C48 001:170.990 JLINK_WriteReg(R14, 0x20000001)
T5C48 001:171.026 - 0.053ms returns 0
T5C48 001:171.063 JLINK_WriteReg(R15 (PC), 0x200000F4)
T5C48 001:171.133 - 0.088ms returns 0
T5C48 001:171.173 JLINK_WriteReg(XPSR, 0x01000000)
T5C48 001:171.211 - 0.057ms returns 0
T5C48 001:171.252 JLINK_WriteReg(MSP, 0x20000800)
T5C48 001:171.300 - 0.068ms returns 0
T5C48 001:171.343 JLINK_WriteReg(PSP, 0x20000800)
T5C48 001:171.386 - 0.072ms returns 0
T5C48 001:171.439 JLINK_WriteReg(CFBP, 0x00000000)
T5C48 001:171.479 - 0.059ms returns 0
T5C48 001:171.523 JLINK_SetBPEx(Addr = 0x20000000, Type = 0xFFFFFFF2)
T5C48 001:171.569 - 0.065ms returns 0x00000007
T5C48 001:171.610 JLINK_Go()
T5C48 001:171.671   CPU_ReadMem(4 bytes @ 0xE0001000)
T5C48 001:174.737 - 3.173ms
T5C48 001:174.807 JLINK_IsHalted()
T5C48 001:175.215 - 0.427ms returns FALSE
T5C48 001:175.253 JLINK_HasError()
T5C48 001:177.150 JLINK_IsHalted()
T5C48 001:177.924 - 0.815ms returns FALSE
T5C48 001:177.996 JLINK_HasError()
T5C48 001:180.246 JLINK_IsHalted()
T5C48 001:180.837 - 0.642ms returns FALSE
T5C48 001:180.912 JLINK_HasError()
T5C48 001:182.104 JLINK_IsHalted()
T5C48 001:182.663 - 0.601ms returns FALSE
T5C48 001:182.736 JLINK_HasError()
T5C48 001:184.460 JLINK_IsHalted()
T5C48 001:185.060 - 0.650ms returns FALSE
T5C48 001:185.136 JLINK_HasError()
T5C48 001:187.008 JLINK_IsHalted()
T5C48 001:187.542 - 0.575ms returns FALSE
T5C48 001:187.607 JLINK_HasError()
T5C48 001:188.992 JLINK_IsHalted()
T5C48 001:189.555 - 0.580ms returns FALSE
T5C48 001:189.591 JLINK_HasError()
T5C48 001:190.999 JLINK_IsHalted()
T5C48 001:191.537 - 0.582ms returns FALSE
T5C48 001:191.612 JLINK_HasError()
T5C48 001:193.035 JLINK_IsHalted()
T5C48 001:193.630 - 0.639ms returns FALSE
T5C48 001:193.701 JLINK_HasError()
T5C48 001:195.112 JLINK_IsHalted()
T5C48 001:195.756 - 0.720ms returns FALSE
T5C48 001:195.857 JLINK_HasError()
T5C48 001:197.009 JLINK_IsHalted()
T5C48 001:197.540 - 0.558ms returns FALSE
T5C48 001:197.594 JLINK_HasError()
T5C48 001:199.514 JLINK_IsHalted()
T5C48 001:200.004 - 0.545ms returns FALSE
T5C48 001:200.121 JLINK_HasError()
T5C48 001:201.384 JLINK_IsHalted()
T5C48 001:201.894 - 0.545ms returns FALSE
T5C48 001:202.057 JLINK_HasError()
T5C48 001:203.976 JLINK_IsHalted()
T5C48 001:204.465 - 0.508ms returns FALSE
T5C48 001:204.503 JLINK_HasError()
T5C48 001:205.998 JLINK_IsHalted()
T5C48 001:209.067   CPU_ReadMem(2 bytes @ 0x20000000)
T5C48 001:209.852 - 3.909ms returns TRUE
T5C48 001:209.933 JLINK_ReadReg(R15 (PC))
T5C48 001:209.970 - 0.051ms returns 0x20000000
T5C48 001:210.003 JLINK_ClrBPEx(BPHandle = 0x00000007)
T5C48 001:210.032 - 0.041ms returns 0x00
T5C48 001:210.060 JLINK_ReadReg(R0)
T5C48 001:210.087 - 0.041ms returns 0x00000000
T5C48 001:211.537 JLINK_WriteMem(0x20000164, 0x29C Bytes, ...)
T5C48 001:211.612   Data:  08 46 00 69 40 F0 20 00 08 61 08 46 00 69 40 F0 ...
T5C48 001:211.679   CPU_WriteMem(668 bytes @ 0x20000164)
T5C48 001:217.299 - 5.816ms returns 0x29C
T5C48 001:217.397 JLINK_WriteMem(0x20000400, 0x164 Bytes, ...)
T5C48 001:217.436   Data:  41 F6 EF 71 08 40 44 49 08 61 08 E0 05 2C 06 D0 ...
T5C48 001:217.512   CPU_WriteMem(356 bytes @ 0x20000400)
T5C48 001:221.014 - 3.663ms returns 0x164
T5C48 001:221.085 JLINK_HasError()
T5C48 001:221.117 JLINK_WriteReg(R0, 0x08000C00)
T5C48 001:221.151 - 0.047ms returns 0
T5C48 001:221.180 JLINK_WriteReg(R1, 0x00000400)
T5C48 001:221.206 - 0.039ms returns 0
T5C48 001:221.234 JLINK_WriteReg(R2, 0x20000164)
T5C48 001:221.266 - 0.044ms returns 0
T5C48 001:221.293 JLINK_WriteReg(R3, 0x00000000)
T5C48 001:221.320 - 0.040ms returns 0
T5C48 001:221.349 JLINK_WriteReg(R4, 0x00000000)
T5C48 001:221.383 - 0.048ms returns 0
T5C48 001:221.425 JLINK_WriteReg(R5, 0x00000000)
T5C48 001:221.459 - 0.047ms returns 0
T5C48 001:221.532 JLINK_WriteReg(R6, 0x00000000)
T5C48 001:221.580 - 0.070ms returns 0
T5C48 001:221.626 JLINK_WriteReg(R7, 0x00000000)
T5C48 001:221.672 - 0.066ms returns 0
T5C48 001:221.714 JLINK_WriteReg(R8, 0x00000000)
T5C48 001:221.754 - 0.054ms returns 0
T5C48 001:221.784 JLINK_WriteReg(R9, 0x20000160)
T5C48 001:221.812 - 0.041ms returns 0
T5C48 001:221.843 JLINK_WriteReg(R10, 0x00000000)
T5C48 001:221.871 - 0.041ms returns 0
T5C48 001:221.901 JLINK_WriteReg(R11, 0x00000000)
T5C48 001:221.930 - 0.043ms returns 0
T5C48 001:221.961 JLINK_WriteReg(R12, 0x00000000)
T5C48 001:221.989 - 0.043ms returns 0
T5C48 001:222.027 JLINK_WriteReg(R13 (SP), 0x20000800)
T5C48 001:222.067 - 0.055ms returns 0
T5C48 001:222.100 JLINK_WriteReg(R14, 0x20000001)
T5C48 001:222.130 - 0.045ms returns 0
T5C48 001:222.162 JLINK_WriteReg(R15 (PC), 0x200000F4)
T5C48 001:222.194 - 0.046ms returns 0
T5C48 001:222.227 JLINK_WriteReg(XPSR, 0x01000000)
T5C48 001:222.265 - 0.055ms returns 0
T5C48 001:222.300 JLINK_WriteReg(MSP, 0x20000800)
T5C48 001:222.332 - 0.053ms returns 0
T5C48 001:222.378 JLINK_WriteReg(PSP, 0x20000800)
T5C48 001:222.427 - 0.071ms returns 0
T5C48 001:222.475 JLINK_WriteReg(CFBP, 0x00000000)
T5C48 001:222.520 - 0.065ms returns 0
T5C48 001:222.565 JLINK_SetBPEx(Addr = 0x20000000, Type = 0xFFFFFFF2)
T5C48 001:222.616 - 0.072ms returns 0x00000008
T5C48 001:222.663 JLINK_Go()
T5C48 001:222.734   CPU_ReadMem(4 bytes @ 0xE0001000)
T5C48 001:226.113 - 3.500ms
T5C48 001:226.187 JLINK_IsHalted()
T5C48 001:226.682 - 0.527ms returns FALSE
T5C48 001:226.736 JLINK_HasError()
T5C48 001:228.282 JLINK_IsHalted()
T5C48 001:228.823 - 0.656ms returns FALSE
T5C48 001:228.970 JLINK_HasError()
T5C48 001:230.315 JLINK_IsHalted()
T5C48 001:230.951 - 0.691ms returns FALSE
T5C48 001:231.037 JLINK_HasError()
T5C48 001:233.173 JLINK_IsHalted()
T5C48 001:233.675 - 0.535ms returns FALSE
T5C48 001:233.730 JLINK_HasError()
T5C48 001:235.188 JLINK_IsHalted()
T5C48 001:235.705 - 0.550ms returns FALSE
T5C48 001:235.759 JLINK_HasError()
T5C48 001:237.187 JLINK_IsHalted()
T5C48 001:237.911 - 0.761ms returns FALSE
T5C48 001:237.975 JLINK_HasError()
T5C48 001:239.232 JLINK_IsHalted()
T5C48 001:239.741 - 0.549ms returns FALSE
T5C48 001:239.809 JLINK_HasError()
T5C48 001:241.346 JLINK_IsHalted()
T5C48 001:242.138 - 0.839ms returns FALSE
T5C48 001:242.218 JLINK_HasError()
T5C48 001:248.023 JLINK_IsHalted()
T5C48 001:248.545 - 0.569ms returns FALSE
T5C48 001:248.617 JLINK_HasError()
T5C48 001:249.928 JLINK_IsHalted()
T5C48 001:250.404 - 0.498ms returns FALSE
T5C48 001:250.446 JLINK_HasError()
T5C48 001:251.889 JLINK_IsHalted()
T5C48 001:252.298 - 0.429ms returns FALSE
T5C48 001:252.337 JLINK_HasError()
T5C48 001:253.926 JLINK_IsHalted()
T5C48 001:254.387 - 0.480ms returns FALSE
T5C48 001:254.424 JLINK_HasError()
T5C48 001:255.935 JLINK_IsHalted()
T5C48 001:256.497 - 0.600ms returns FALSE
T5C48 001:256.559 JLINK_HasError()
T5C48 001:260.504 JLINK_IsHalted()
T5C48 001:263.639   CPU_ReadMem(2 bytes @ 0x20000000)
T5C48 001:264.232 - 3.751ms returns TRUE
T5C48 001:264.285 JLINK_ReadReg(R15 (PC))
T5C48 001:264.332 - 0.065ms returns 0x20000000
T5C48 001:264.373 JLINK_ClrBPEx(BPHandle = 0x00000008)
T5C48 001:264.424 - 0.070ms returns 0x00
T5C48 001:264.467 JLINK_ReadReg(R0)
T5C48 001:264.504 - 0.062ms returns 0x00000000
T5C48 001:266.336 JLINK_WriteMem(0x20000164, 0x29C Bytes, ...)
T5C48 001:266.415   Data:  10 20 00 F0 17 FD 00 21 10 20 00 F0 13 FD 2E E0 ...
T5C48 001:266.505   CPU_WriteMem(668 bytes @ 0x20000164)
T5C48 001:272.281 - 6.077ms returns 0x29C
T5C48 001:272.455 JLINK_WriteMem(0x20000400, 0x164 Bytes, ...)
T5C48 001:272.502   Data:  00 46 B6 F1 00 4F 02 D1 1C 4E F1 61 01 E0 1B 4E ...
T5C48 001:272.600   CPU_WriteMem(356 bytes @ 0x20000400)
T5C48 001:276.038 - 3.625ms returns 0x164
T5C48 001:276.124 JLINK_HasError()
T5C48 001:276.170 JLINK_WriteReg(R0, 0x08001000)
T5C48 001:276.219 - 0.069ms returns 0
T5C48 001:276.274 JLINK_WriteReg(R1, 0x00000400)
T5C48 001:276.324 - 0.069ms returns 0
T5C48 001:276.364 JLINK_WriteReg(R2, 0x20000164)
T5C48 001:276.407 - 0.063ms returns 0
T5C48 001:276.450 JLINK_WriteReg(R3, 0x00000000)
T5C48 001:276.496 - 0.071ms returns 0
T5C48 001:276.540 JLINK_WriteReg(R4, 0x00000000)
T5C48 001:276.568 - 0.040ms returns 0
T5C48 001:276.596 JLINK_WriteReg(R5, 0x00000000)
T5C48 001:276.634 - 0.051ms returns 0
T5C48 001:276.662 JLINK_WriteReg(R6, 0x00000000)
T5C48 001:276.688 - 0.038ms returns 0
T5C48 001:276.716 JLINK_WriteReg(R7, 0x00000000)
T5C48 001:276.753 - 0.053ms returns 0
T5C48 001:276.784 JLINK_WriteReg(R8, 0x00000000)
T5C48 001:276.812 - 0.042ms returns 0
T5C48 001:276.846 JLINK_WriteReg(R9, 0x20000160)
T5C48 001:276.883 - 0.057ms returns 0
T5C48 001:276.920 JLINK_WriteReg(R10, 0x00000000)
T5C48 001:276.947 - 0.058ms returns 0
T5C48 001:276.994 JLINK_WriteReg(R11, 0x00000000)
T5C48 001:277.030 - 0.055ms returns 0
T5C48 001:277.069 JLINK_WriteReg(R12, 0x00000000)
T5C48 001:277.105 - 0.054ms returns 0
T5C48 001:277.145 JLINK_WriteReg(R13 (SP), 0x20000800)
T5C48 001:277.187 - 0.059ms returns 0
T5C48 001:277.223 JLINK_WriteReg(R14, 0x20000001)
T5C48 001:277.262 - 0.057ms returns 0
T5C48 001:277.302 JLINK_WriteReg(R15 (PC), 0x200000F4)
T5C48 001:277.352 - 0.069ms returns 0
T5C48 001:277.402 JLINK_WriteReg(XPSR, 0x01000000)
T5C48 001:277.442 - 0.058ms returns 0
T5C48 001:277.476 JLINK_WriteReg(MSP, 0x20000800)
T5C48 001:277.503 - 0.039ms returns 0
T5C48 001:277.530 JLINK_WriteReg(PSP, 0x20000800)
T5C48 001:277.556 - 0.038ms returns 0
T5C48 001:277.584 JLINK_WriteReg(CFBP, 0x00000000)
T5C48 001:277.610 - 0.038ms returns 0
T5C48 001:277.638 JLINK_SetBPEx(Addr = 0x20000000, Type = 0xFFFFFFF2)
T5C48 001:277.668 - 0.042ms returns 0x00000009
T5C48 001:277.696 JLINK_Go()
T5C48 001:277.941   CPU_ReadMem(4 bytes @ 0xE0001000)
T5C48 001:280.727 - 3.080ms
T5C48 001:280.816 JLINK_IsHalted()
T5C48 001:281.256 - 0.458ms returns FALSE
T5C48 001:281.304 JLINK_HasError()
T5C48 001:282.942 JLINK_IsHalted()
T5C48 001:283.510 - 0.606ms returns FALSE
T5C48 001:283.576 JLINK_HasError()
T5C48 001:284.937 JLINK_IsHalted()
T5C48 001:285.470 - 0.556ms returns FALSE
T5C48 001:285.521 JLINK_HasError()
T5C48 001:287.245 JLINK_IsHalted()
T5C48 001:287.970 - 0.830ms returns FALSE
T5C48 001:288.126 JLINK_HasError()
T5C48 001:289.470 JLINK_IsHalted()
T5C48 001:290.033 - 0.586ms returns FALSE
T5C48 001:290.083 JLINK_HasError()
T5C48 001:291.484 JLINK_IsHalted()
T5C48 001:291.933 - 0.509ms returns FALSE
T5C48 001:292.032 JLINK_HasError()
T5C48 001:294.015 JLINK_IsHalted()
T5C48 001:294.569 - 0.591ms returns FALSE
T5C48 001:294.641 JLINK_HasError()
T5C48 001:295.998 JLINK_IsHalted()
T5C48 001:296.461 - 0.482ms returns FALSE
T5C48 001:296.501 JLINK_HasError()
T5C48 001:298.401 JLINK_IsHalted()
T5C48 001:298.884 - 0.500ms returns FALSE
T5C48 001:298.920 JLINK_HasError()
T5C48 001:300.443 JLINK_IsHalted()
T5C48 001:300.919 - 0.496ms returns FALSE
T5C48 001:300.962 JLINK_HasError()
T5C48 001:302.971 JLINK_IsHalted()
T5C48 001:303.735 - 0.823ms returns FALSE
T5C48 001:303.836 JLINK_HasError()
T5C48 001:306.003 JLINK_IsHalted()
T5C48 001:306.589 - 0.621ms returns FALSE
T5C48 001:306.653 JLINK_HasError()
T5C48 001:309.378 JLINK_IsHalted()
T5C48 001:309.899 - 0.548ms returns FALSE
T5C48 001:309.952 JLINK_HasError()
T5C48 001:311.432 JLINK_IsHalted()
T5C48 001:314.732   CPU_ReadMem(2 bytes @ 0x20000000)
T5C48 001:315.384 - 4.025ms returns TRUE
T5C48 001:315.492 JLINK_ReadReg(R15 (PC))
T5C48 001:315.542 - 0.068ms returns 0x20000000
T5C48 001:315.583 JLINK_ClrBPEx(BPHandle = 0x00000009)
T5C48 001:315.622 - 0.057ms returns 0x00
T5C48 001:315.662 JLINK_ReadReg(R0)
T5C48 001:315.700 - 0.055ms returns 0x00000000
T5C48 001:317.548 JLINK_WriteMem(0x20000164, 0x29C Bytes, ...)
T5C48 001:317.650   Data:  F1 F0 40 1C 20 84 A6 83 20 88 40 F0 01 00 20 80 ...
T5C48 001:317.930   CPU_WriteMem(668 bytes @ 0x20000164)
T5C48 001:323.478 - 5.984ms returns 0x29C
T5C48 001:323.575 JLINK_WriteMem(0x20000400, 0x164 Bytes, ...)
T5C48 001:323.616   Data:  0C B5 02 46 00 20 00 23 01 93 00 93 00 92 0B 0F ...
T5C48 001:323.682   CPU_WriteMem(356 bytes @ 0x20000400)
T5C48 001:327.018 - 3.519ms returns 0x164
T5C48 001:327.136 JLINK_HasError()
T5C48 001:327.182 JLINK_WriteReg(R0, 0x08001400)
T5C48 001:327.244 - 0.084ms returns 0
T5C48 001:327.294 JLINK_WriteReg(R1, 0x00000400)
T5C48 001:327.348 - 0.077ms returns 0
T5C48 001:327.397 JLINK_WriteReg(R2, 0x20000164)
T5C48 001:327.445 - 0.069ms returns 0
T5C48 001:327.491 JLINK_WriteReg(R3, 0x00000000)
T5C48 001:327.543 - 0.075ms returns 0
T5C48 001:327.587 JLINK_WriteReg(R4, 0x00000000)
T5C48 001:327.621 - 0.050ms returns 0
T5C48 001:327.656 JLINK_WriteReg(R5, 0x00000000)
T5C48 001:327.689 - 0.316ms returns 0
T5C48 001:328.008 JLINK_WriteReg(R6, 0x00000000)
T5C48 001:328.056 - 0.074ms returns 0
T5C48 001:328.108 JLINK_WriteReg(R7, 0x00000000)
T5C48 001:328.165 - 0.081ms returns 0
T5C48 001:328.217 JLINK_WriteReg(R8, 0x00000000)
T5C48 001:328.267 - 0.075ms returns 0
T5C48 001:328.322 JLINK_WriteReg(R9, 0x20000160)
T5C48 001:328.372 - 0.073ms returns 0
T5C48 001:328.423 JLINK_WriteReg(R10, 0x00000000)
T5C48 001:328.467 - 0.069ms returns 0
T5C48 001:328.520 JLINK_WriteReg(R11, 0x00000000)
T5C48 001:328.568 - 0.071ms returns 0
T5C48 001:328.618 JLINK_WriteReg(R12, 0x00000000)
T5C48 001:328.663 - 0.090ms returns 0
T5C48 001:328.738 JLINK_WriteReg(R13 (SP), 0x20000800)
T5C48 001:328.789 - 0.074ms returns 0
T5C48 001:328.838 JLINK_WriteReg(R14, 0x20000001)
T5C48 001:328.986 - 0.170ms returns 0
T5C48 001:329.038 JLINK_WriteReg(R15 (PC), 0x200000F4)
T5C48 001:329.085 - 0.069ms returns 0
T5C48 001:329.133 JLINK_WriteReg(XPSR, 0x01000000)
T5C48 001:329.178 - 0.067ms returns 0
T5C48 001:329.224 JLINK_WriteReg(MSP, 0x20000800)
T5C48 001:329.283 - 0.081ms returns 0
T5C48 001:329.328 JLINK_WriteReg(PSP, 0x20000800)
T5C48 001:329.370 - 0.061ms returns 0
T5C48 001:329.412 JLINK_WriteReg(CFBP, 0x00000000)
T5C48 001:329.452 - 0.060ms returns 0
T5C48 001:329.498 JLINK_SetBPEx(Addr = 0x20000000, Type = 0xFFFFFFF2)
T5C48 001:329.546 - 0.070ms returns 0x0000000A
T5C48 001:329.593 JLINK_Go()
T5C48 001:329.660   CPU_ReadMem(4 bytes @ 0xE0001000)
T5C48 001:332.523 - 2.977ms
T5C48 001:332.596 JLINK_IsHalted()
T5C48 001:333.032 - 0.492ms returns FALSE
T5C48 001:333.137 JLINK_HasError()
T5C48 001:334.423 JLINK_IsHalted()
T5C48 001:335.037 - 0.665ms returns FALSE
T5C48 001:335.119 JLINK_HasError()
T5C48 001:336.860 JLINK_IsHalted()
T5C48 001:337.349 - 0.532ms returns FALSE
T5C48 001:337.415 JLINK_HasError()
T5C48 001:338.880 JLINK_IsHalted()
T5C48 001:339.432 - 0.590ms returns FALSE
T5C48 001:339.495 JLINK_HasError()
T5C48 001:341.022 JLINK_IsHalted()
T5C48 001:341.651 - 0.669ms returns FALSE
T5C48 001:342.067 JLINK_HasError()
T5C48 001:343.873 JLINK_IsHalted()
T5C48 001:344.409 - 0.573ms returns FALSE
T5C48 001:344.475 JLINK_HasError()
T5C48 001:346.655 JLINK_IsHalted()
T5C48 001:347.187 - 0.568ms returns FALSE
T5C48 001:347.251 JLINK_HasError()
T5C48 001:353.294 JLINK_IsHalted()
T5C48 001:353.783 - 0.535ms returns FALSE
T5C48 001:353.855 JLINK_HasError()
T5C48 001:355.289 JLINK_IsHalted()
T5C48 001:355.930 - 0.688ms returns FALSE
T5C48 001:356.007 JLINK_HasError()
T5C48 001:357.919 JLINK_IsHalted()
T5C48 001:358.410 - 0.518ms returns FALSE
T5C48 001:358.468 JLINK_HasError()
T5C48 001:359.934 JLINK_IsHalted()
T5C48 001:360.411 - 0.495ms returns FALSE
T5C48 001:360.451 JLINK_HasError()
T5C48 001:361.920 JLINK_IsHalted()
T5C48 001:362.465 - 0.584ms returns FALSE
T5C48 001:362.532 JLINK_HasError()
T5C48 001:363.955 JLINK_IsHalted()
T5C48 001:367.077   CPU_ReadMem(2 bytes @ 0x20000000)
T5C48 001:367.950 - 4.064ms returns TRUE
T5C48 001:368.054 JLINK_ReadReg(R15 (PC))
T5C48 001:368.103 - 0.067ms returns 0x20000000
T5C48 001:368.143 JLINK_ClrBPEx(BPHandle = 0x0000000A)
T5C48 001:368.183 - 0.057ms returns 0x00
T5C48 001:368.224 JLINK_ReadReg(R0)
T5C48 001:368.261 - 0.055ms returns 0x00000000
T5C48 001:370.204 JLINK_WriteMem(0x20000164, 0x29C Bytes, ...)
T5C48 001:370.297   Data:  A0 6F 01 D0 00 2D F2 D0 31 20 FF F7 CE FF 08 B1 ...
T5C48 001:370.384   CPU_WriteMem(668 bytes @ 0x20000164)
T5C48 001:375.924 - 5.776ms returns 0x29C
T5C48 001:376.023 JLINK_WriteMem(0x20000400, 0x164 Bytes, ...)
T5C48 001:376.059   Data:  70 47 01 49 88 72 70 47 00 10 02 40 00 00 FF F8 ...
T5C48 001:376.136   CPU_WriteMem(356 bytes @ 0x20000400)
T5C48 001:379.557 - 3.620ms returns 0x164
T5C48 001:379.681 JLINK_HasError()
T5C48 001:379.727 JLINK_WriteReg(R0, 0x08001800)
T5C48 001:379.773 - 0.062ms returns 0
T5C48 001:379.809 JLINK_WriteReg(R1, 0x00000400)
T5C48 001:379.843 - 0.050ms returns 0
T5C48 001:379.878 JLINK_WriteReg(R2, 0x20000164)
T5C48 001:379.911 - 0.049ms returns 0
T5C48 001:379.946 JLINK_WriteReg(R3, 0x00000000)
T5C48 001:379.996 - 0.066ms returns 0
T5C48 001:380.031 JLINK_WriteReg(R4, 0x00000000)
T5C48 001:380.252 - 0.250ms returns 0
T5C48 001:380.310 JLINK_WriteReg(R5, 0x00000000)
T5C48 001:380.360 - 0.076ms returns 0
T5C48 001:380.416 JLINK_WriteReg(R6, 0x00000000)
T5C48 001:380.468 - 0.076ms returns 0
T5C48 001:380.518 JLINK_WriteReg(R7, 0x00000000)
T5C48 001:380.568 - 0.079ms returns 0
T5C48 001:380.630 JLINK_WriteReg(R8, 0x00000000)
T5C48 001:380.673 - 0.064ms returns 0
T5C48 001:380.719 JLINK_WriteReg(R9, 0x20000160)
T5C48 001:380.763 - 0.062ms returns 0
T5C48 001:380.804 JLINK_WriteReg(R10, 0x00000000)
T5C48 001:380.847 - 0.065ms returns 0
T5C48 001:380.892 JLINK_WriteReg(R11, 0x00000000)
T5C48 001:380.934 - 0.063ms returns 0
T5C48 001:380.977 JLINK_WriteReg(R12, 0x00000000)
T5C48 001:381.019 - 0.087ms returns 0
T5C48 001:381.091 JLINK_WriteReg(R13 (SP), 0x20000800)
T5C48 001:381.138 - 0.069ms returns 0
T5C48 001:381.183 JLINK_WriteReg(R14, 0x20000001)
T5C48 001:381.235 - 0.075ms returns 0
